Title: test opamp tran
Date: Mon May  5 16:25:41  2025
Command: ngspice-44.2, Build 
Plotname: Transient Analysis
Flags: real
No. Variables: 3
No. Points: 474
Variables:
	0	time	time
	1	v(vout3)	voltage
	2	v(visr)	voltage
Values:
 0	0.000000000000000e+00
	2.999342254990263e-01
	3.000000000000000e-01

 1	1.000000000000000e-08
	2.999342254260477e-01
	3.000000000000000e-01

 2	2.000000000000000e-08
	2.999342253979764e-01
	3.000000000000000e-01

 3	4.000000000000000e-08
	2.999342253766834e-01
	3.000000000000000e-01

 4	8.000000000000000e-08
	2.999342253986859e-01
	3.000000000000000e-01

 5	1.600000000000000e-07
	2.999342257112576e-01
	3.000000000000000e-01

 6	3.200000000000000e-07
	2.999342255996680e-01
	3.000000000000000e-01

 7	6.400000000000000e-07
	2.999342251320918e-01
	3.000000000000000e-01

 8	1.000000000000000e-06
	2.999342257469018e-01
	3.000000000000000e-01

 9	1.000000100000000e-06
	3.005048285390560e-01
	3.199999999878466e-01

 10	1.000000300000000e-06
	3.015405169418887e-01
	3.600000000058914e-01

 11	1.000000700000000e-06
	3.035279324440849e-01
	4.399999999996294e-01

 12	1.000001000000000e-06
	3.049851413719970e-01
	5.000000000000000e-01

 13	1.000001080000000e-06
	3.049457862121248e-01
	5.000000000000000e-01

 14	1.000001240000000e-06
	3.049483527885737e-01
	5.000000000000000e-01

 15	1.000001560000000e-06
	3.049756652493687e-01
	5.000000000000000e-01

 16	1.000002200000000e-06
	3.049726610721811e-01
	5.000000000000000e-01

 17	1.000003480000000e-06
	3.049758830481141e-01
	5.000000000000000e-01

 18	1.000006040000000e-06
	3.049633346468703e-01
	5.000000000000000e-01

 19	1.000011160000000e-06
	3.049646949921372e-01
	5.000000000000000e-01

 20	1.000021400000001e-06
	3.049421126435618e-01
	5.000000000000000e-01

 21	1.000041880000001e-06
	3.049222348759726e-01
	5.000000000000000e-01

 22	1.000082840000002e-06
	3.048581384256334e-01
	5.000000000000000e-01

 23	1.000164760000004e-06
	3.047574151073594e-01
	5.000000000000000e-01

 24	1.000328600000009e-06
	3.045408340099262e-01
	5.000000000000000e-01

 25	1.000656280000018e-06
	3.041685387979861e-01
	5.000000000000000e-01

 26	1.001311640000036e-06
	3.035216253540861e-01
	5.000000000000000e-01

 27	1.002622360000072e-06
	3.026143716406532e-01
	5.000000000000000e-01

 28	1.005243800000145e-06
	3.015922613536418e-01
	5.000000000000000e-01

 29	1.010486680000290e-06
	3.006784713050997e-01
	5.000000000000000e-01

 30	1.020972440000579e-06
	2.993792368582620e-01
	5.000000000000000e-01

 31	1.041943960001158e-06
	2.984786794034998e-01
	5.000000000000000e-01

 32	1.083887000002316e-06
	3.047099668561792e-01
	5.000000000000000e-01

 33	1.161281253438496e-06
	3.236353340450898e-01
	5.000000000000000e-01

 34	1.269529595165515e-06
	3.466530943402327e-01
	5.000000000000000e-01

 35	1.486026278619553e-06
	3.958042123492328e-01
	5.000000000000000e-01

 36	1.919019645527629e-06
	4.804098688060788e-01
	5.000000000000000e-01

 37	2.027267987254648e-06
	4.950750919302488e-01
	5.000000000000000e-01

 38	2.243764670708686e-06
	5.180728559102526e-01
	5.000000000000000e-01

 39	2.504182147640149e-06
	5.226562202874693e-01
	5.000000000000000e-01

 40	2.745440217147298e-06
	5.103772595497987e-01
	5.000000000000000e-01

 41	3.056810692174274e-06
	5.006265223350116e-01
	5.000000000000000e-01

 42	3.378889727712104e-06
	4.969939309847238e-01
	5.000000000000000e-01

 43	3.994751838361750e-06
	4.989134512027219e-01
	5.000000000000000e-01

 44	4.727348518742780e-06
	5.008470645112082e-01
	5.000000000000000e-01

 45	5.727348518742780e-06
	4.996307599224240e-01
	5.000000000000000e-01

 46	6.727348518742779e-06
	4.999318722293403e-01
	5.000000000000000e-01

 47	7.727348518742780e-06
	4.999557183492704e-01
	5.000000000000000e-01

 48	8.727348518742780e-06
	4.999856944625178e-01
	5.000000000000000e-01

 49	9.727348518742781e-06
	4.998167724741288e-01
	5.000000000000000e-01

 50	1.072734851874278e-05
	5.000757116596921e-01
	5.000000000000000e-01

 51	1.172734851874278e-05
	4.997906759101478e-01
	5.000000000000000e-01

 52	1.272734851874278e-05
	5.000605154906519e-01
	5.000000000000000e-01

 53	1.372734851874278e-05
	4.998058608864434e-01
	5.000000000000000e-01

 54	1.472734851874278e-05
	5.000557734158497e-01
	5.000000000000000e-01

 55	1.572734851874278e-05
	4.998038886617066e-01
	5.000000000000000e-01

 56	1.672734851874278e-05
	5.000593020216302e-01
	5.000000000000000e-01

 57	1.772734851874278e-05
	4.998026881636434e-01
	5.000000000000000e-01

 58	1.872734851874278e-05
	5.000591150119800e-01
	5.000000000000000e-01

 59	1.972734851874279e-05
	4.998043381216323e-01
	5.000000000000000e-01

 60	2.072734851874279e-05
	5.000572885946483e-01
	5.000000000000000e-01

 61	2.172734851874279e-05
	4.998067022315749e-01
	5.000000000000000e-01

 62	2.272734851874279e-05
	5.000549035072626e-01
	5.000000000000000e-01

 63	2.372734851874279e-05
	4.998095692896780e-01
	5.000000000000000e-01

 64	2.472734851874279e-05
	5.000519432743081e-01
	5.000000000000000e-01

 65	2.572734851874279e-05
	4.998129207867690e-01
	5.000000000000000e-01

 66	2.672734851874279e-05
	5.000485394953214e-01
	5.000000000000000e-01

 67	2.772734851874279e-05
	4.998166021582095e-01
	5.000000000000000e-01

 68	2.872734851874279e-05
	5.000448476586696e-01
	5.000000000000000e-01

 69	2.972734851874279e-05
	4.998204948278762e-01
	5.000000000000000e-01

 70	3.072734851874279e-05
	5.000409715924823e-01
	5.000000000000000e-01

 71	3.172734851874279e-05
	4.998245175773433e-01
	5.000000000000000e-01

 72	3.272734851874278e-05
	5.000369883681780e-01
	5.000000000000000e-01

 73	3.372734851874278e-05
	4.998286044648789e-01
	5.000000000000000e-01

 74	3.472734851874278e-05
	5.000329589135368e-01
	5.000000000000000e-01

 75	3.572734851874277e-05
	4.998327050171191e-01
	5.000000000000000e-01

 76	3.672734851874277e-05
	5.000289321716354e-01
	5.000000000000000e-01

 77	3.772734851874277e-05
	4.998367763749337e-01
	5.000000000000000e-01

 78	3.872734851874277e-05
	5.000249460384556e-01
	5.000000000000000e-01

 79	3.972734851874276e-05
	4.998407884646675e-01
	5.000000000000000e-01

 80	4.072734851874276e-05
	5.000210266283946e-01
	5.000000000000000e-01

 81	4.172734851874276e-05
	4.998447189942291e-01
	5.000000000000000e-01

 82	4.272734851874275e-05
	5.000171952071700e-01
	5.000000000000000e-01

 83	4.372734851874275e-05
	4.998485492397675e-01
	5.000000000000000e-01

 84	4.472734851874275e-05
	5.000134679103870e-01
	5.000000000000000e-01

 85	4.572734851874275e-05
	4.998522669096472e-01
	5.000000000000000e-01

 86	4.672734851874274e-05
	5.000098543113795e-01
	5.000000000000000e-01

 87	4.772734851874274e-05
	4.998558647139373e-01
	5.000000000000000e-01

 88	4.872734851874274e-05
	5.000063619696612e-01
	5.000000000000000e-01

 89	4.972734851874274e-05
	4.998593344980163e-01
	5.000000000000000e-01

 90	5.072734851874273e-05
	5.000029973909478e-01
	5.000000000000000e-01

 91	5.172734851874273e-05
	4.998626735667338e-01
	5.000000000000000e-01

 92	5.272734851874273e-05
	4.999997614976344e-01
	5.000000000000000e-01

 93	5.372734851874272e-05
	4.998658812150901e-01
	5.000000000000000e-01

 94	5.472734851874272e-05
	4.999966546425727e-01
	5.000000000000000e-01

 95	5.572734851874272e-05
	4.998689582733848e-01
	5.000000000000000e-01

 96	5.672734851874272e-05
	4.999936759534581e-01
	5.000000000000000e-01

 97	5.772734851874271e-05
	4.998719052151404e-01
	5.000000000000000e-01

 98	5.872734851874271e-05
	4.999908245934253e-01
	5.000000000000000e-01

 99	5.972734851874271e-05
	4.998747241171799e-01
	5.000000000000000e-01

 100	6.072734851874270e-05
	4.999880975300879e-01
	5.000000000000000e-01

 101	6.172734851874270e-05
	4.998774188682955e-01
	5.000000000000000e-01

 102	6.272734851874270e-05
	4.999854906660070e-01
	5.000000000000000e-01

 103	6.372734851874270e-05
	4.998799932652351e-01
	5.000000000000000e-01

 104	6.472734851874269e-05
	4.999830019156459e-01
	5.000000000000000e-01

 105	6.572734851874269e-05
	4.998824487990241e-01
	5.000000000000000e-01

 106	6.672734851874269e-05
	4.999806271648486e-01
	5.000000000000000e-01

 107	6.772734851874268e-05
	4.998847926577197e-01
	5.000000000000000e-01

 108	6.872734851874268e-05
	4.999783605722358e-01
	5.000000000000000e-01

 109	6.972734851874268e-05
	4.998870274329654e-01
	5.000000000000000e-01

 110	7.072734851874268e-05
	4.999761999038683e-01
	5.000000000000000e-01

 111	7.172734851874267e-05
	4.998891575133481e-01
	5.000000000000000e-01

 112	7.272734851874267e-05
	4.999741399581129e-01
	5.000000000000000e-01

 113	7.372734851874267e-05
	4.998911875489198e-01
	5.000000000000000e-01

 114	7.472734851874267e-05
	4.999721770280645e-01
	5.000000000000000e-01

 115	7.572734851874266e-05
	4.998931213949368e-01
	5.000000000000000e-01

 116	7.672734851874266e-05
	4.999703068839095e-01
	5.000000000000000e-01

 117	7.772734851874266e-05
	4.998949633821471e-01
	5.000000000000000e-01

 118	7.872734851874265e-05
	4.999685246867559e-01
	5.000000000000000e-01

 119	7.972734851874265e-05
	4.998967184331060e-01
	5.000000000000000e-01

 120	8.072734851874265e-05
	4.999668274059352e-01
	5.000000000000000e-01

 121	8.172734851874265e-05
	4.998983895129943e-01
	5.000000000000000e-01

 122	8.272734851874264e-05
	4.999652099809050e-01
	5.000000000000000e-01

 123	8.372734851874264e-05
	4.998999818336509e-01
	5.000000000000000e-01

 124	8.472734851874264e-05
	4.999636691614200e-01
	5.000000000000000e-01

 125	8.572734851874263e-05
	4.999014977359152e-01
	5.000000000000000e-01

 126	8.672734851874263e-05
	4.999622023480318e-01
	5.000000000000000e-01

 127	8.772734851874263e-05
	4.999029412527803e-01
	5.000000000000000e-01

 128	8.872734851874263e-05
	4.999608048695229e-01
	5.000000000000000e-01

 129	8.972734851874262e-05
	4.999043159651530e-01
	5.000000000000000e-01

 130	9.072734851874262e-05
	4.999594734139579e-01
	5.000000000000000e-01

 131	9.172734851874262e-05
	4.999056259644670e-01
	5.000000000000000e-01

 132	9.272734851874261e-05
	4.999582051583900e-01
	5.000000000000000e-01

 133	9.372734851874261e-05
	4.999068732544668e-01
	5.000000000000000e-01

 134	9.472734851874261e-05
	4.999569967785045e-01
	5.000000000000000e-01

 135	9.572734851874261e-05
	4.999080614658144e-01
	5.000000000000000e-01

 136	9.672734851874260e-05
	4.999558455622387e-01
	5.000000000000000e-01

 137	9.772734851874260e-05
	4.999091936423937e-01
	5.000000000000000e-01

 138	9.872734851874260e-05
	4.999547486888176e-01
	5.000000000000000e-01

 139	9.972734851874260e-05
	4.999102719992623e-01
	5.000000000000000e-01

 140	1.007273485187426e-04
	4.999537034177552e-01
	5.000000000000000e-01

 141	1.017273485187426e-04
	4.999112992765605e-01
	5.000000000000000e-01

 142	1.027273485187426e-04
	4.999527079066030e-01
	5.000000000000000e-01

 143	1.037273485187426e-04
	4.999122775273594e-01
	5.000000000000000e-01

 144	1.047273485187426e-04
	4.999517594028940e-01
	5.000000000000000e-01

 145	1.057273485187426e-04
	4.999132103576818e-01
	5.000000000000000e-01

 146	1.067273485187426e-04
	4.999508545942757e-01
	5.000000000000000e-01

 147	1.077273485187426e-04
	4.999140990618383e-01
	5.000000000000000e-01

 148	1.087273485187426e-04
	4.999499926690207e-01
	5.000000000000000e-01

 149	1.097273485187426e-04
	4.999149460684912e-01
	5.000000000000000e-01

 150	1.107273485187426e-04
	4.999491708841159e-01
	5.000000000000000e-01

 151	1.117273485187426e-04
	4.999157539692282e-01
	5.000000000000000e-01

 152	1.127273485187426e-04
	4.999483867301814e-01
	5.000000000000000e-01

 153	1.137273485187426e-04
	4.999165240745992e-01
	5.000000000000000e-01

 154	1.147273485187426e-04
	4.999476396212663e-01
	5.000000000000000e-01

 155	1.157273485187426e-04
	4.999172578081337e-01
	5.000000000000000e-01

 156	1.167273485187425e-04
	4.999469275001023e-01
	5.000000000000000e-01

 157	1.177273485187425e-04
	4.999179572051862e-01
	5.000000000000000e-01

 158	1.187273485187425e-04
	4.999462485789196e-01
	5.000000000000000e-01

 159	1.197273485187425e-04
	4.999186238931365e-01
	5.000000000000000e-01

 160	1.207273485187425e-04
	4.999456008767871e-01
	5.000000000000000e-01

 161	1.217273485187425e-04
	4.999192605468421e-01
	5.000000000000000e-01

 162	1.227273485187425e-04
	4.999449826675202e-01
	5.000000000000000e-01

 163	1.237273485187425e-04
	4.999198672662178e-01
	5.000000000000000e-01

 164	1.247273485187425e-04
	4.999443936758026e-01
	5.000000000000000e-01

 165	1.257273485187425e-04
	4.999204450934454e-01
	5.000000000000000e-01

 166	1.267273485187425e-04
	4.999438321863053e-01
	5.000000000000000e-01

 167	1.277273485187425e-04
	4.999209968805525e-01
	5.000000000000000e-01

 168	1.287273485187425e-04
	4.999432959079846e-01
	5.000000000000000e-01

 169	1.297273485187425e-04
	4.999215233581943e-01
	5.000000000000000e-01

 170	1.307273485187425e-04
	4.999427842698901e-01
	5.000000000000000e-01

 171	1.317273485187425e-04
	4.999220251527385e-01
	5.000000000000000e-01

 172	1.327273485187425e-04
	4.999422969994020e-01
	5.000000000000000e-01

 173	1.337273485187425e-04
	4.999225037757184e-01
	5.000000000000000e-01

 174	1.347273485187425e-04
	4.999418311557882e-01
	5.000000000000000e-01

 175	1.357273485187425e-04
	4.999229610317167e-01
	5.000000000000000e-01

 176	1.367273485187425e-04
	4.999413869358701e-01
	5.000000000000000e-01

 177	1.377273485187425e-04
	4.999233965143430e-01
	5.000000000000000e-01

 178	1.387273485187425e-04
	4.999409634478876e-01
	5.000000000000000e-01

 179	1.397273485187425e-04
	4.999238126769611e-01
	5.000000000000000e-01

 180	1.407273485187425e-04
	4.999405586273760e-01
	5.000000000000000e-01

 181	1.417273485187425e-04
	4.999242093234625e-01
	5.000000000000000e-01

 182	1.427273485187425e-04
	4.999401732328438e-01
	5.000000000000000e-01

 183	1.437273485187425e-04
	4.999245875522758e-01
	5.000000000000000e-01

 184	1.447273485187425e-04
	4.999398049399493e-01
	5.000000000000000e-01

 185	1.457273485187425e-04
	4.999249490331627e-01
	5.000000000000000e-01

 186	1.467273485187425e-04
	4.999394535327921e-01
	5.000000000000000e-01

 187	1.477273485187425e-04
	4.999252937310524e-01
	5.000000000000000e-01

 188	1.487273485187425e-04
	4.999391177050030e-01
	5.000000000000000e-01

 189	1.497273485187425e-04
	4.999256231031250e-01
	5.000000000000000e-01

 190	1.507273485187425e-04
	4.999387978520033e-01
	5.000000000000000e-01

 191	1.517273485187424e-04
	4.999259363678870e-01
	5.000000000000000e-01

 192	1.527273485187424e-04
	4.999384929231735e-01
	5.000000000000000e-01

 193	1.537273485187424e-04
	4.999262357522284e-01
	5.000000000000000e-01

 194	1.547273485187424e-04
	4.999382011734556e-01
	5.000000000000000e-01

 195	1.557273485187424e-04
	4.999265221376643e-01
	5.000000000000000e-01

 196	1.567273485187424e-04
	4.999379226688920e-01
	5.000000000000000e-01

 197	1.577273485187424e-04
	4.999267942029388e-01
	5.000000000000000e-01

 198	1.587273485187424e-04
	4.999376582084289e-01
	5.000000000000000e-01

 199	1.597273485187424e-04
	4.999270543708460e-01
	5.000000000000000e-01

 200	1.607273485187424e-04
	4.999374043812010e-01
	5.000000000000000e-01

 201	1.617273485187424e-04
	4.999273030180518e-01
	5.000000000000000e-01

 202	1.627273485187424e-04
	4.999371624266894e-01
	5.000000000000000e-01

 203	1.637273485187424e-04
	4.999275400356681e-01
	5.000000000000000e-01

 204	1.647273485187424e-04
	4.999369318148498e-01
	5.000000000000000e-01

 205	1.657273485187424e-04
	4.999277661500910e-01
	5.000000000000000e-01

 206	1.667273485187424e-04
	4.999367114165553e-01
	5.000000000000000e-01

 207	1.677273485187424e-04
	4.999279823963837e-01
	5.000000000000000e-01

 208	1.687273485187424e-04
	4.999365006299220e-01
	5.000000000000000e-01

 209	1.697273485187424e-04
	4.999281886571453e-01
	5.000000000000000e-01

 210	1.707273485187424e-04
	4.999363005729221e-01
	5.000000000000000e-01

 211	1.717273485187424e-04
	4.999283846450914e-01
	5.000000000000000e-01

 212	1.727273485187424e-04
	4.999361089385645e-01
	5.000000000000000e-01

 213	1.737273485187424e-04
	4.999285725367956e-01
	5.000000000000000e-01

 214	1.747273485187424e-04
	4.999359266100287e-01
	5.000000000000000e-01

 215	1.757273485187424e-04
	4.999287510791840e-01
	5.000000000000000e-01

 216	1.767273485187424e-04
	4.999357515666336e-01
	5.000000000000000e-01

 217	1.777273485187424e-04
	4.999289233371926e-01
	5.000000000000000e-01

 218	1.787273485187424e-04
	4.999355844234877e-01
	5.000000000000000e-01

 219	1.797273485187424e-04
	4.999290860818037e-01
	5.000000000000000e-01

 220	1.807273485187424e-04
	4.999354262411471e-01
	5.000000000000000e-01

 221	1.817273485187424e-04
	4.999292411573264e-01
	5.000000000000000e-01

 222	1.827273485187424e-04
	4.999352748593161e-01
	5.000000000000000e-01

 223	1.837273485187424e-04
	4.999293896896529e-01
	5.000000000000000e-01

 224	1.847273485187424e-04
	4.999351299704077e-01
	5.000000000000000e-01

 225	1.857273485187424e-04
	4.999295316938812e-01
	5.000000000000000e-01

 226	1.867273485187424e-04
	4.999349917608504e-01
	5.000000000000000e-01

 227	1.877273485187423e-04
	4.999296665241540e-01
	5.000000000000000e-01

 228	1.887273485187423e-04
	4.999348608022654e-01
	5.000000000000000e-01

 229	1.897273485187423e-04
	4.999297947288540e-01
	5.000000000000000e-01

 230	1.907273485187423e-04
	4.999347354526219e-01
	5.000000000000000e-01

 231	1.917273485187423e-04
	4.999299182749478e-01
	5.000000000000000e-01

 232	1.927273485187423e-04
	4.999346146217937e-01
	5.000000000000000e-01

 233	1.937273485187423e-04
	4.999300359708493e-01
	5.000000000000000e-01

 234	1.947273485187423e-04
	4.999345008143205e-01
	5.000000000000000e-01

 235	1.957273485187423e-04
	4.999301475197695e-01
	5.000000000000000e-01

 236	1.967273485187423e-04
	4.999343915141393e-01
	5.000000000000000e-01

 237	1.977273485187423e-04
	4.999302542190552e-01
	5.000000000000000e-01

 238	1.987273485187423e-04
	4.999342877585919e-01
	5.000000000000000e-01

 239	1.997273485187423e-04
	4.999303564463532e-01
	5.000000000000000e-01

 240	2.007273485187423e-04
	4.999341878668592e-01
	5.000000000000000e-01

 241	2.010000010000000e-04
	4.999305761916690e-01
	5.000000000000000e-01

 242	2.010000011000000e-04
	4.993910078879489e-01
	4.799999989957139e-01

 243	2.010000013000000e-04
	4.983959205681535e-01
	4.399999969871417e-01

 244	2.010000017000000e-04
	4.964547126554734e-01
	3.599999983910080e-01

 245	2.010000020000000e-04
	4.950136754867898e-01
	3.000000000000000e-01

 246	2.010000020800000e-04
	4.950735781564723e-01
	3.000000000000000e-01

 247	2.010000022400000e-04
	4.950997625953700e-01
	3.000000000000000e-01

 248	2.010000025600000e-04
	4.950968621719183e-01
	3.000000000000000e-01

 249	2.010000032000000e-04
	4.951087642699254e-01
	3.000000000000000e-01

 250	2.010000044800000e-04
	4.950999640099513e-01
	3.000000000000000e-01

 251	2.010000070399999e-04
	4.951078332207265e-01
	3.000000000000000e-01

 252	2.010000121599999e-04
	4.950944822707891e-01
	3.000000000000000e-01

 253	2.010000223999999e-04
	4.950953817124923e-01
	3.000000000000000e-01

 254	2.010000428799998e-04
	4.950702507265541e-01
	3.000000000000000e-01

 255	2.010000838399996e-04
	4.950479169421898e-01
	3.000000000000000e-01

 256	2.010001657599993e-04
	4.949800308858072e-01
	3.000000000000000e-01

 257	2.010003295999986e-04
	4.948849890719660e-01
	3.000000000000000e-01

 258	2.010006572799973e-04
	4.947174206805499e-01
	3.000000000000000e-01

 259	2.010013126399947e-04
	4.945670718730411e-01
	3.000000000000000e-01

 260	2.010026233599895e-04
	4.946507945063858e-01
	3.000000000000000e-01

 261	2.010052447999790e-04
	4.955479172558436e-01
	3.000000000000000e-01

 262	2.010104876799581e-04
	4.975401719312037e-01
	3.000000000000000e-01

 263	2.010209734399162e-04
	4.997705720362842e-01
	3.000000000000000e-01

 264	2.010419449598324e-04
	5.021070135721901e-01
	3.000000000000000e-01

 265	2.010838879996648e-04
	4.995116507983448e-01
	3.000000000000000e-01

 266	2.011550205616528e-04
	4.822724231179544e-01
	3.000000000000000e-01

 267	2.012700049573187e-04
	4.579358543035075e-01
	3.000000000000000e-01

 268	2.014761377354015e-04
